
**** 08/11/22 07:55:26 ********* PSpice 9.2 (Mar 2000) ******** ID# 0 ********

 * D:\Project\project1.sch


 ****     CIRCUIT DESCRIPTION


******************************************************************************




* Schematics Version 9.2
* Fri Aug 05 23:24:59 2022



** Analysis setup **
.tran 1n 100u 0 10n
.OP 
.LIB "D:\Project\project1.lib"


* From [PSPICE NETLIST] section of d:\orcad\PSpice\PSpice.ini:
.lib "nom.lib"

.INC "project1.net"



**** INCLUDING project1.net ****
* Schematics Netlist *



D_D2         $N_0001 $N_0002 D1N914 
D_D1         $N_0003 $N_0001 D1N914 
D_D4         $N_0004 $N_0005 D1N914 
R_R2         $N_0002 $N_0003  10k  
R_R4         $N_0006 $N_0002  10k  
R_R5         $N_0008 $N_0007  10k  
R_R3         $N_0003 $N_0009  10k  
R_R9         $N_0010 $N_0005  10k  
R_R7         $N_0005 $N_0009  10k  
R_R6         $N_0008 $N_0010  10k  
R_R10         $N_0008 $N_0009  20k  
V_V2         0 b 12V
R_R8         $N_0009 $N_0011  20k  
R_R11         $N_0008 $N_0009  10k  
R_R1         $N_0006 $N_0009  10k  
X_U6A         0 $N_0009 a b $N_0011 LM6132B/NS
X_U8A         0 $N_0010 a b $N_0004 LM6132B/NS
X_U9A         0 $N_0007 a b $N_0001 LM6132B/NS
V_V3         $N_0006 0  
+SIN 0 10p 1Meg 0 0 0
V_V4         $N_0008 0  
+PULSE -10pV 10pV 1p 1p 1p 6us 12us
V_V1         a 0 12V
D_D3         $N_0010 $N_0004 D1N914 

**** RESUMING project1.cir ****
.PROBE V(*) I(*) W(*) D(*) NOISE(*) 


.END

**** 08/11/22 07:55:26 ********* PSpice 9.2 (Mar 2000) ******** ID# 0 ********

 * D:\Project\project1.sch


 ****     Diode MODEL PARAMETERS


******************************************************************************




               D1N914          X_U6A.DA        X_U6A.DB        X_U6A.DX        
          IS  168.100000E-21  110.000000E-09  113.400000E-09   10.000000E-15 
         ISR  100.000000E-12                                                 
          BV  100                                                            
         IBV  100.000000E-06                                                 
          RS     .1                                                          
          TT   11.540000E-09                                                 
         CJO    4.000000E-12                                                 
          VJ     .75                                                         
           M     .3333                                                       


               X_U8A.DA        X_U8A.DB        X_U8A.DX        X_U9A.DA        
          IS  110.000000E-09  113.400000E-09   10.000000E-15  110.000000E-09 


               X_U9A.DB        X_U9A.DX        
          IS  113.400000E-09   10.000000E-15 


**** 08/11/22 07:55:26 ********* PSpice 9.2 (Mar 2000) ******** ID# 0 ********

 * D:\Project\project1.sch


 ****     MOSFET MODEL PARAMETERS


******************************************************************************




               X_U6A.MX        X_U8A.MX        X_U9A.MX        
               PMOS            PMOS            PMOS            
       LEVEL    1               1               1            
           L  100.000000E-06  100.000000E-06  100.000000E-06 
           W  100.000000E-06  100.000000E-06  100.000000E-06 
         VTO    -.6             -.6             -.6          
          KP  420.000000E-06  420.000000E-06  420.000000E-06 
       GAMMA    1.1             1.1             1.1          
         PHI     .6              .6              .6          
      LAMBDA    0               0               0            
          IS   10.000000E-15   10.000000E-15   10.000000E-15 
          JS    0               0               0            
          PB     .8              .8              .8          
        PBSW     .8              .8              .8          
          CJ    0               0               0            
        CJSW    0               0               0            
        CGSO    0               0               0            
        CGDO    0               0               0            
        CGBO    0               0               0            
         TOX    0               0               0            
          XJ    0               0               0            
       UCRIT   10.000000E+03   10.000000E+03   10.000000E+03 
      DIOMOD    1               1               1            
         VFB    0               0               0            
        LETA    0               0               0            
        WETA    0               0               0            
          U0    0               0               0            
        TEMP    0               0               0            
         VDD    0               0               0            
       XPART    0               0               0            


**** 08/11/22 07:55:26 ********* PSpice 9.2 (Mar 2000) ******** ID# 0 ********

 * D:\Project\project1.sch


 ****     SMALL SIGNAL BIAS SOLUTION       TEMPERATURE =   27.000 DEG C


******************************************************************************



 NODE   VOLTAGE     NODE   VOLTAGE     NODE   VOLTAGE     NODE   VOLTAGE


(    a)   12.0000  (    b)  -12.0000  ($N_0001)   11.6850                       

($N_0002)   10.8010                   ($N_0003)    5.4037                       

($N_0004)     .5033                   ($N_0005)     .0109                       

($N_0006)    0.0000                   ($N_0007)     .0011                       

($N_0008)-10.00E-12                   ($N_0009)     .0061                       

($N_0010)     .0060                   ($N_0011)  -10.7700                       

(X_U6A.4)    3.3132                   (X_U6A.5)  -11.9890                       

(X_U6A.6)  -11.9890                   (X_U6A.7)     .0060                       

(X_U6A.8)   11.3900                   (X_U6A.9)  -10.8340                       

(X_U8A.4)    3.3131                   (X_U8A.5)  -11.9890                       

(X_U8A.6)  -11.9890                   (X_U8A.7)     .0060                       

(X_U8A.8)   11.3900                   (X_U8A.9)     .5078                       

(X_U9A.4)    3.3111                   (X_U9A.5)  -11.9890                       

(X_U9A.6)  -11.9890                   (X_U9A.7)     .0060                       

(X_U9A.8)   11.3900                   (X_U9A.9)   11.9670                       

(X_U6A.10)  -11.3900                  (X_U6A.11)  -10.8340                      

(X_U6A.12)     .6391                  (X_U6A.13)     .6391                      

(X_U6A.14)     .6391                  (X_U6A.15)  -10.8340                      

(X_U6A.16) 21.36E-09                  (X_U6A.17) 21.36E-09                      

(X_U6A.18)     .0060                  (X_U6A.19)  -10.8340                      

(X_U6A.20)  -10.5600                  (X_U6A.21)  -10.9800                      

(X_U6A.22)  -10.7700                  (X_U6A.23)  -10.8340                      

(X_U6A.24)  -10.8000                  (X_U6A.25)  -10.8360                      

(X_U6A.26)  -10.1600                  (X_U6A.27)  -11.3800                      

(X_U6A.29)  -10.5600                  (X_U6A.30)  -10.9800                      

(X_U6A.31)   -8.0000                  (X_U6A.32)   12.0000                      

(X_U6A.33)   11.6600                  (X_U6A.34)  -11.6600                      

(X_U6A.49)    0.0000                  (X_U6A.96)  -12.0000                      

(X_U6A.97)   12.0000                  (X_U6A.98)    0.0000                      

(X_U8A.10)  -11.3900                  (X_U8A.11)     .5078                      

(X_U8A.12)    -.4754                  (X_U8A.13)    -.4754                      

(X_U8A.14)    -.4754                  (X_U8A.15)     .5078                      

(X_U8A.16) 20.98E-09                  (X_U8A.17) 20.98E-09                      

(X_U8A.18)     .0060                  (X_U8A.19)     .5078                      

(X_U8A.20)     .7133                  (X_U8A.21)     .2933                      

(X_U8A.22)     .5033                  (X_U8A.23)     .5078                      

(X_U8A.24)     .5147                  (X_U8A.25)     .4921                      

(X_U8A.26)    1.1133                  (X_U8A.27)    -.1067                      

(X_U8A.29)     .7133                  (X_U8A.30)     .2933                      

(X_U8A.31)   -8.0000                  (X_U8A.32)   12.0000                      

(X_U8A.33)   11.6600                  (X_U8A.34)  -11.6600                      

(X_U8A.49)    0.0000                  (X_U8A.96)  -12.0000                      

(X_U8A.97)   12.0000                  (X_U8A.98)    0.0000                      

(X_U9A.10)  -11.3900                  (X_U9A.11)   11.9660                      

(X_U9A.12)    -.6676                  (X_U9A.13)    -.6676                      

(X_U9A.14)    -.6676                  (X_U9A.15)   11.9660                      

(X_U9A.16) 3.969E-09                  (X_U9A.17) 3.969E-09                      

(X_U9A.18)     .0060                  (X_U9A.19)   11.9660                      

(X_U9A.20)   11.8950                  (X_U9A.21)   11.4750                      

(X_U9A.22)   11.6850                  (X_U9A.23)   11.9660                      

(X_U9A.24)   11.9660                  (X_U9A.25)   11.7420                      

(X_U9A.26)   12.2950                  (X_U9A.27)   11.0750                      

(X_U9A.29)   11.8950                  (X_U9A.30)   11.4750                      

(X_U9A.31)   -8.0000                  (X_U9A.32)   12.0000                      

(X_U9A.33)   11.6600                  (X_U9A.34)  -11.6600                      

(X_U9A.49)    0.0000                  (X_U9A.96)  -12.0000                      

(X_U9A.97)   12.0000                  (X_U9A.98)    0.0000                  




    VOLTAGE SOURCE CURRENTS
    NAME         CURRENT

    V_V2        -1.820E-03
    V_V3         1.081E-03
    V_V4         1.629E-06
    V_V1        -2.903E-03
    X_U6A.VA1   -5.388E-04
    X_U6A.VA2   -6.491E-13
    X_U6A.VA3    5.388E-04
    X_U6A.V2     2.223E-11
    X_U6A.V3     5.656E-13
    X_U6A.V4    -2.840E-13
    X_U6A.V5    -1.560E-13
    X_U6A.V6    -5.525E-04
    X_U6A.V7    -1.368E-05
    X_U6A.V8     2.001E-11
    X_U6A.V9     8.357E-13
    X_U6A.V10    2.250E-11
    X_U8A.VA1    9.613E-07
    X_U8A.VA2    9.613E-07
    X_U8A.VA3   -4.854E-13
    X_U8A.V2     1.089E-11
    X_U8A.V3     1.191E-11
    X_U8A.V4    -2.155E-13
    X_U8A.V5    -2.244E-13
    X_U8A.V6    -1.124E-04
    X_U8A.V7    -1.134E-04
    X_U8A.V8     2.001E-11
    X_U8A.V9     1.218E-11
    X_U8A.V10    1.116E-11
    X_U9A.VA1    1.620E-03
    X_U9A.VA2    1.620E-03
    X_U9A.VA3   -6.776E-13
    X_U9A.V2    -4.957E-05
    X_U9A.V3     2.337E-11
    X_U9A.V4     2.175E-13
    X_U9A.V5    -5.011E-13
    X_U9A.V6    -3.330E-09
    X_U9A.V7    -1.620E-03
    X_U9A.V8     2.001E-11
    X_U9A.V9     2.364E-11
    X_U9A.V10   -1.374E-09

    TOTAL POWER DISSIPATION   5.82E-02  WATTS


**** 08/11/22 07:55:26 ********* PSpice 9.2 (Mar 2000) ******** ID# 0 ********

 * D:\Project\project1.sch


 ****     OPERATING POINT INFORMATION      TEMPERATURE =   27.000 DEG C


******************************************************************************






**** VOLTAGE-CONTROLLED CURRENT SOURCES


NAME         X_U6A.G1    X_U6A.G2    X_U6A.G3    X_U6A.G4    X_U8A.G1  
I-SOURCE    -1.083E-06  -1.083E-05  -1.083E-05   2.136E-11   5.078E-08

NAME         X_U8A.G2    X_U8A.G3    X_U8A.G4    X_U9A.G1    X_U9A.G2  
I-SOURCE     5.078E-07   5.078E-07   2.098E-11   5.077E-05   1.197E-05

NAME         X_U9A.G3    X_U9A.G4  
I-SOURCE     1.197E-05   3.969E-12


**** VOLTAGE-CONTROLLED VOLTAGE SOURCES


NAME         X_U6A.EH    X_U6A.EN    X_U6A.EOS   X_U6A.EP    X_U6A.E1  
V-SOURCE     1.200E+01   1.200E+01   6.000E-03   1.200E+01   2.283E+01
I-SOURCE    -4.346E-11  -1.401E-12   0.000E+00   5.388E-04  -5.388E-04

NAME         X_U6A.E2    X_U8A.EH    X_U8A.EN    X_U8A.EOS   X_U8A.EP  
V-SOURCE    -2.001E-09   1.200E+01   1.200E+01   6.000E-03   1.200E+01
I-SOURCE     0.000E+00   2.037E-12  -2.409E-11   0.000E+00  -9.613E-07

NAME         X_U8A.E1    X_U8A.E2    X_U9A.EH    X_U9A.EN    X_U9A.EOS 
V-SOURCE     1.149E+01  -2.001E-09   1.200E+01   1.200E+01   6.000E-03
I-SOURCE     9.613E-07   0.000E+00   4.957E-05  -4.700E-11   0.000E+00

NAME         X_U9A.EP    X_U9A.E1    X_U9A.E2  
V-SOURCE     1.200E+01   3.403E-02  -2.001E-09
I-SOURCE    -1.620E-03   1.620E-03   0.000E+00


**** CURRENT-CONTROLLED CURRENT SOURCES


NAME         X_U6A.F1    X_U6A.F2    X_U6A.F3    X_U8A.F1    X_U8A.F2  
I-SOURCE    -6.491E-13   5.388E-04  -5.388E-04   9.613E-07  -4.854E-13

NAME         X_U8A.F3    X_U9A.F1    X_U9A.F2    X_U9A.F3  
I-SOURCE     9.613E-07   1.620E-03  -6.776E-13   1.620E-03


**** DIODES


NAME         D_D2        D_D1        D_D4        D_D3        X_U6A.DP1 
MODEL        D1N914      D1N914      D1N914      D1N914      X_U6A.DA  
ID           1.62E-03   -2.11E-10    9.61E-07   -1.19E-10   -1.10E-07 
VD           8.84E-01   -6.28E+00    4.92E-01   -4.97E-01   -1.20E+01 
REQ          2.72E+01    1.33E+11    5.75E+04    3.15E+10    1.00E+12 
CAP          4.32E-10    1.90E-12    5.77E-12    3.38E-12    0.00E+00 

NAME         X_U6A.DP2   X_U6A.DP3   X_U6A.DP4   X_U6A.D1    X_U6A.D2  
MODEL        X_U6A.DX    X_U6A.DB    X_U6A.DX    X_U6A.DX    X_U6A.DX  
ID          -1.20E-11   -1.13E-07   -1.20E-11   -2.22E-11   -5.66E-13 
VD          -1.20E+01   -1.20E+01   -1.20E+01   -2.22E+01   -5.56E-01 
REQ          1.00E+12    1.00E+12    1.00E+12    1.00E+12    1.00E+12 
CAP          0.00E+00    0.00E+00    0.00E+00    0.00E+00    0.00E+00 

NAME         X_U6A.D3    X_U6A.D4    X_U6A.D5    X_U6A.D6    X_U6A.D7  
MODEL        X_U6A.DX    X_U6A.DX    X_U6A.DX    X_U6A.DX    X_U6A.DX  
ID          -2.84E-13   -1.56E-13    5.53E-04    1.37E-05   -2.28E-11 
VD          -2.74E-01   -1.46E-01    6.40E-01    5.44E-01   -2.28E+01 
REQ          1.00E+12    9.99E+11    4.68E+01    1.89E+03    1.00E+12 
CAP          0.00E+00    0.00E+00    0.00E+00    0.00E+00    0.00E+00 

NAME         X_U6A.D8    X_U6A.D9    X_U6A.D10   X_U6A.D11   X_U6A.D12 
MODEL        X_U6A.DX    X_U6A.DX    X_U6A.DX    X_U6A.DX    X_U6A.DX  
ID          -1.24E-12   -6.49E-13    5.39E-04   -2.25E-11   -8.36E-13 
VD          -1.23E+00   -6.39E-01    6.39E-01   -2.25E+01   -8.26E-01 
REQ          1.00E+12    1.00E+12    4.80E+01    1.00E+12    1.00E+12 
CAP          0.00E+00    0.00E+00    0.00E+00    0.00E+00    0.00E+00 

NAME         X_U6A.D14   X_U8A.DP1   X_U8A.DP2   X_U8A.DP3   X_U8A.DP4 
MODEL        X_U6A.DX    X_U8A.DA    X_U8A.DX    X_U8A.DB    X_U8A.DX  
ID          -2.00E-11   -1.10E-07   -1.20E-11   -1.13E-07   -1.20E-11 
VD          -2.00E+01   -1.20E+01   -1.20E+01   -1.20E+01   -1.20E+01 
REQ          1.00E+12    1.00E+12    1.00E+12    1.00E+12    1.00E+12 
CAP          0.00E+00    0.00E+00    0.00E+00    0.00E+00    0.00E+00 

NAME         X_U8A.D1    X_U8A.D2    X_U8A.D3    X_U8A.D4    X_U8A.D5  
MODEL        X_U8A.DX    X_U8A.DX    X_U8A.DX    X_U8A.DX    X_U8A.DX  
ID          -1.09E-11   -1.19E-11   -2.16E-13   -2.24E-13    1.12E-04 
VD          -1.09E+01   -1.19E+01   -2.06E-01   -2.14E-01    5.99E-01 
REQ          1.00E+12    1.00E+12    1.00E+12    1.00E+12    2.30E+02 
CAP          0.00E+00    0.00E+00    0.00E+00    0.00E+00    0.00E+00 

NAME         X_U8A.D6    X_U8A.D7    X_U8A.D8    X_U8A.D9    X_U8A.D10 
MODEL        X_U8A.DX    X_U8A.DX    X_U8A.DX    X_U8A.DX    X_U8A.DX  
ID           1.13E-04   -1.15E-11   -1.25E-11    9.61E-07   -4.85E-13 
VD           5.99E-01   -1.15E+01   -1.25E+01    4.75E-01   -4.75E-01 
REQ          2.28E+02    1.00E+12    1.00E+12    2.69E+04    1.00E+12 
CAP          0.00E+00    0.00E+00    0.00E+00    0.00E+00    0.00E+00 

NAME         X_U8A.D11   X_U8A.D12   X_U8A.D14   X_U9A.DP1   X_U9A.DP2 
MODEL        X_U8A.DX    X_U8A.DX    X_U8A.DX    X_U9A.DA    X_U9A.DX  
ID          -1.12E-11   -1.22E-11   -2.00E-11   -1.10E-07   -1.20E-11 
VD          -1.12E+01   -1.22E+01   -2.00E+01   -1.20E+01   -1.20E+01 
REQ          1.00E+12    1.00E+12    1.00E+12    1.00E+12    1.00E+12 
CAP          0.00E+00    0.00E+00    0.00E+00    0.00E+00    0.00E+00 

NAME         X_U9A.DP3   X_U9A.DP4   X_U9A.D1    X_U9A.D2    X_U9A.D3  
MODEL        X_U9A.DB    X_U9A.DX    X_U9A.DX    X_U9A.DX    X_U9A.DX  
ID          -1.13E-07   -1.20E-11    4.96E-05   -2.34E-11    2.18E-13 
VD          -1.20E+01   -1.20E+01    5.77E-01   -2.34E+01    7.11E-02 
REQ          1.00E+12    1.00E+12    5.22E+02    1.00E+12    1.42E+11 
CAP          0.00E+00    0.00E+00    0.00E+00    0.00E+00    0.00E+00 

NAME         X_U9A.D4    X_U9A.D5    X_U9A.D6    X_U9A.D7    X_U9A.D8  
MODEL        X_U9A.DX    X_U9A.DX    X_U9A.DX    X_U9A.DX    X_U9A.DX  
ID          -5.01E-13    3.33E-09    1.62E-03   -3.25E-13   -2.37E-11 
VD          -4.91E-01    3.29E-01    6.68E-01   -3.15E-01   -2.37E+01 
REQ          1.00E+12    7.77E+06    1.60E+01    1.00E+12    1.00E+12 
CAP          0.00E+00    0.00E+00    0.00E+00    0.00E+00    0.00E+00 

NAME         X_U9A.D9    X_U9A.D10   X_U9A.D11   X_U9A.D12   X_U9A.D14 
MODEL        X_U9A.DX    X_U9A.DX    X_U9A.DX    X_U9A.DX    X_U9A.DX  
ID           1.62E-03   -6.78E-13    1.37E-09   -2.36E-11   -2.00E-11 
VD           6.68E-01   -6.68E-01    3.06E-01   -2.36E+01   -2.00E+01 
REQ          1.60E+01    1.00E+12    1.88E+07    1.00E+12    1.00E+12 
CAP          0.00E+00    0.00E+00    0.00E+00    0.00E+00    0.00E+00 


**** MOSFETS


NAME         X_U6A.M1    X_U6A.M2    X_U8A.M1    X_U8A.M2    X_U9A.M1  
MODEL        X_U6A.MX    X_U6A.MX    X_U8A.MX    X_U8A.MX    X_U9A.MX  
ID          -9.00E-06   -9.00E-06   -9.00E-06   -9.00E-06   -9.21E-06 
VGS         -3.31E+00   -3.31E+00   -3.31E+00   -3.31E+00   -3.31E+00 
VDS         -1.53E+01   -1.53E+01   -1.53E+01   -1.53E+01   -1.53E+01 
VBS          8.69E+00    8.69E+00    8.69E+00    8.69E+00    8.69E+00 
VTH         -3.10E+00   -3.10E+00   -3.10E+00   -3.10E+00   -3.10E+00 
VDSAT       -2.07E-01   -2.07E-01   -2.07E-01   -2.07E-01   -2.09E-01 
Lin0/Sat1   -1.00E+00   -1.00E+00   -1.00E+00   -1.00E+00   -1.00E+00 
if          -1.00E+00   -1.00E+00   -1.00E+00   -1.00E+00   -1.00E+00 
ir          -1.00E+00   -1.00E+00   -1.00E+00   -1.00E+00   -1.00E+00 
TAU         -1.00E+00   -1.00E+00   -1.00E+00   -1.00E+00   -1.00E+00 
GM           8.69E-05    8.70E-05    8.69E-05    8.69E-05    8.80E-05 
GDS          0.00E+00    0.00E+00    0.00E+00    0.00E+00    0.00E+00 
GMB          1.57E-05    1.57E-05    1.57E-05    1.57E-05    1.59E-05 
CBD          0.00E+00    0.00E+00    0.00E+00    0.00E+00    0.00E+00 
CBS          0.00E+00    0.00E+00    0.00E+00    0.00E+00    0.00E+00 
CGSOV        0.00E+00    0.00E+00    0.00E+00    0.00E+00    0.00E+00 
CGDOV        0.00E+00    0.00E+00    0.00E+00    0.00E+00    0.00E+00 
CGBOV        0.00E+00    0.00E+00    0.00E+00    0.00E+00    0.00E+00 
CGS          0.00E+00    0.00E+00    0.00E+00    0.00E+00    0.00E+00 
CGD          0.00E+00    0.00E+00    0.00E+00    0.00E+00    0.00E+00 
CGB          0.00E+00    0.00E+00    0.00E+00    0.00E+00    0.00E+00 

NAME         X_U9A.M2  
MODEL        X_U9A.MX  
ID          -8.79E-06 
VGS         -3.31E+00 
VDS         -1.53E+01 
VBS          8.69E+00 
VTH         -3.10E+00 
VDSAT       -2.05E-01 
Lin0/Sat1   -1.00E+00 
if          -1.00E+00 
ir          -1.00E+00 
TAU         -1.00E+00 
GM           8.59E-05 
