
**** 08/31/22 15:25:35 ********* PSpice 9.2 (Mar 2000) ******** ID# 0 ********

 * D:\Project\project2.sch


 ****     CIRCUIT DESCRIPTION


******************************************************************************




* Schematics Version 9.2
* Wed Aug 31 15:22:04 2022



** Analysis setup **
.tran 10u 0.8 0.6 100u
.OP 
.LIB "D:\Project\project2.lib"


* From [PSPICE NETLIST] section of d:\orcad\PSpice\PSpice.ini:
.lib "nom.lib"

.INC "project2.net"



**** INCLUDING project2.net ****
* Schematics Netlist *



D_D1         $N_0001 $N_0002 D1N914 
R_R3         $N_0003 $N_0002  10k  
R_R4         $N_0004 $N_0002  10k  
R_R5         Va $N_0005  10k  
R_R2         $N_0002 Va  10k  
D_D3         $N_0006 $N_0007 D1N914 
D_D4         $N_0007 Vb D1N914 
D_D2         Va $N_0001 D1N914 
R_R8         Vb $N_0005  10k  
R_R12         0 $N_0008  309.119  
R_R13         $N_0010 $N_0009  400k  
R_R14         0 Vout1  100k  
C_C1         $N_0008 $N_0009  0.1591uF IC=0 
C_C2         $N_0008 $N_0010  0.1591uF IC=0 
C_C3         $N_0009 Vout1  0.1uF  
R_R9         $N_0004 $N_0005  20k  
R_R1         $N_0003 $N_0005  20k  
R_R15         $N_0004 $N_0005  20k  
X_U2         0 $N_0006 a b $N_0007 uA741
X_U1A         0 $N_0002 a b $N_0001 LM6132B/NS
X_U4         $N_0010 0 a b $N_0009 uA741
X_U3         0 $N_0005 a b Vc uA741
R_R10         $N_0005 Vc  20k  
R_R11         Vc $N_0008  200k  
C_C5         $N_0017 Vout2  0.1uF  
C_C4         $N_0018 $N_0019  0.1591uF IC=0 
R_R19         0 Vout2  100k  
C_C6         $N_0018 $N_0017  0.1591uF IC=0 
X_U5         $N_0019 0 a b $N_0017 uA741
R_R16         Vc $N_0018  1.43Meg  
R_R18         $N_0019 $N_0017  2.86Meg  
R_R17         0 $N_0018  3.512k  
V_RF         $N_0003 0  
+SIN 0 1V 50 0 0 0
V_LO         $N_0004 0  
+SIN 0 1V 50 0 0 0
R_R6         $N_0006 Vb  20k  
V_V2         0 b 12V
V_V1         a 0 12V
R_R7         $N_0004 $N_0006  10k  

**** RESUMING project2.cir ****
.PROBE V(*) I(*) W(*) D(*) NOISE(*) 


.END

**** 08/31/22 15:25:35 ********* PSpice 9.2 (Mar 2000) ******** ID# 0 ********

 * D:\Project\project2.sch


 ****     Diode MODEL PARAMETERS


******************************************************************************




               D1N914          X_U2.dx         X_U2.dy         X_U1A.DA        
          IS  168.100000E-21  800.000000E-18  800.000000E-18  110.000000E-09 
         ISR  100.000000E-12                                                 
          BV  100                                                            
         IBV  100.000000E-06                                                 
          RS     .1             1               1.000000E-03                 
          TT   11.540000E-09                                                 
         CJO    4.000000E-12                   10.000000E-12                 
          VJ     .75                                                         
           M     .3333                                                       


               X_U1A.DB        X_U1A.DX        X_U4.dx         X_U4.dy         
          IS  113.400000E-09   10.000000E-15  800.000000E-18  800.000000E-18 
          RS                                    1               1.000000E-03 
         CJO                                                   10.000000E-12 


               X_U3.dx         X_U3.dy         X_U5.dx         X_U5.dy         
          IS  800.000000E-18  800.000000E-18  800.000000E-18  800.000000E-18 
          RS    1               1.000000E-03    1               1.000000E-03 
         CJO                   10.000000E-12                   10.000000E-12 


**** 08/31/22 15:25:35 ********* PSpice 9.2 (Mar 2000) ******** ID# 0 ********

 * D:\Project\project2.sch


 ****     BJT MODEL PARAMETERS


******************************************************************************




               X_U2.qx         X_U4.qx         X_U3.qx         X_U5.qx         
               NPN             NPN             NPN             NPN             
          IS  800.000000E-18  800.000000E-18  800.000000E-18  800.000000E-18 
          BF   93.75           93.75           93.75           93.75         
          NF    1               1               1               1            
          BR    1               1               1               1            
          NR    1               1               1               1            
          CN    2.42            2.42            2.42            2.42         
           D     .87             .87             .87             .87         


**** 08/31/22 15:25:35 ********* PSpice 9.2 (Mar 2000) ******** ID# 0 ********

 * D:\Project\project2.sch


 ****     MOSFET MODEL PARAMETERS


******************************************************************************




               X_U1A.MX        
               PMOS            
       LEVEL    1            
           L  100.000000E-06 
           W  100.000000E-06 
         VTO    -.6          
          KP  420.000000E-06 
       GAMMA    1.1          
         PHI     .6          
      LAMBDA    0            
          IS   10.000000E-15 
          JS    0            
          PB     .8          
        PBSW     .8          
          CJ    0            
        CJSW    0            
        CGSO    0            
        CGDO    0            
        CGBO    0            
         TOX    0            
          XJ    0            
       UCRIT   10.000000E+03 
      DIOMOD    1            
         VFB    0            
        LETA    0            
        WETA    0            
          U0    0            
        TEMP    0            
         VDD    0            
       XPART    0            


**** 08/31/22 15:25:35 ********* PSpice 9.2 (Mar 2000) ******** ID# 0 ********

 * D:\Project\project2.sch


 ****     SMALL SIGNAL BIAS SOLUTION       TEMPERATURE =   27.000 DEG C


******************************************************************************



 NODE   VOLTAGE     NODE   VOLTAGE     NODE   VOLTAGE     NODE   VOLTAGE


(    a)   12.0000  (    b)  -12.0000  (   Va)     .0030  (   Vb)     .0016      

(   Vc)    -.0076  (Vout1)    0.0000  (Vout2)    0.0000  (X_U2.6)-39.49E-06     

(X_U2.7)     .4189 (X_U2.8)     .4189 (X_U2.9)    0.0000 (X_U3.6) 717.8E-09     

(X_U3.7)    -.0076 (X_U3.8)    -.0076 (X_U3.9)    0.0000 (X_U4.6) 779.0E-12     

(X_U4.7)-16.50E-06 (X_U4.8)-16.50E-06 (X_U4.9)    0.0000 (X_U5.6) 429.6E-12     

(X_U5.7)-15.28E-06 (X_U5.8)-15.28E-06 (X_U5.9)    0.0000 ($N_0001)     .5187    

($N_0002)     .0060                   ($N_0003)    0.0000                       

($N_0004)    0.0000                   ($N_0005) 19.29E-06                       

($N_0006) 17.15E-06                   ($N_0007)     .4189                       

($N_0008)-19.25E-06                   ($N_0009)-19.25E-06                       

($N_0010)-19.25E-06                   ($N_0017)-19.25E-06                       

($N_0018)-19.25E-06                   ($N_0019)-19.25E-06                       

(X_U1A.4)    3.3131                   (X_U1A.5)  -11.9890                       

(X_U1A.6)  -11.9890                   (X_U1A.7)     .0060                       

(X_U1A.8)   11.3900                   (X_U1A.9)     .5232                       

(X_U2.10)    -.6077                   (X_U2.11)   11.9600                       

(X_U2.12)   11.9600                   (X_U2.13)    -.5938                       

(X_U2.14)    -.5938                   (X_U2.53)   11.0000                       

(X_U2.54)  -11.0000                   (X_U2.90) 244.0E-06                       

(X_U2.91)   40.0000                   (X_U2.92)  -40.0000                       

(X_U2.99)    0.0000                   (X_U3.10)    -.6077                       

(X_U3.11)   11.9600                   (X_U3.12)   11.9600                       

(X_U3.13)    -.5938                   (X_U3.14)    -.5938                       

(X_U3.53)   11.0000                   (X_U3.54)  -11.0000                       

(X_U3.90)-421.6E-06                   (X_U3.91)   40.0000                       

(X_U3.92)  -40.0000                   (X_U3.99)    0.0000                       

(X_U4.10)    -.6077                   (X_U4.11)   11.9600                       

(X_U4.12)   11.9600                   (X_U4.13)    -.5938                       

(X_U4.14)    -.5938                   (X_U4.53)   11.0000                       

(X_U4.54)  -11.0000                   (X_U4.90) 55.13E-06                       

(X_U4.91)   40.0000                   (X_U4.92)  -40.0000                       

(X_U4.99)    0.0000                   (X_U5.10)    -.6077                       

(X_U5.11)   11.9600                   (X_U5.12)   11.9600                       

(X_U5.13)    -.5938                   (X_U5.14)    -.5938                       

(X_U5.53)   11.0000                   (X_U5.54)  -11.0000                       

(X_U5.90) 79.51E-06                   (X_U5.91)   40.0000                       

(X_U5.92)  -40.0000                   (X_U5.99)    0.0000                       

(X_U1A.10)  -11.3900                  (X_U1A.11)     .5232                      

(X_U1A.12)    -.4849                  (X_U1A.13)    -.4849                      

(X_U1A.14)    -.4849                  (X_U1A.15)     .5232                      

(X_U1A.16) 20.98E-09                  (X_U1A.17) 20.98E-09                      

(X_U1A.18)     .0060                  (X_U1A.19)     .5232                      

(X_U1A.20)     .7287                  (X_U1A.21)     .3087                      

(X_U1A.22)     .5187                  (X_U1A.23)     .5232                      

(X_U1A.24)     .5301                  (X_U1A.25)     .5075                      

(X_U1A.26)    1.1287                  (X_U1A.27)    -.0913                      

(X_U1A.29)     .7287                  (X_U1A.30)     .3087                      

(X_U1A.31)   -8.0000                  (X_U1A.32)   12.0000                      

(X_U1A.33)   11.6600                  (X_U1A.34)  -11.6600                      

(X_U1A.49)    0.0000                  (X_U1A.96)  -12.0000                      

(X_U1A.97)   12.0000                  (X_U1A.98)    0.0000                  




    VOLTAGE SOURCE CURRENTS
    NAME         CURRENT

    V_RF         6.005E-07
    V_LO         6.031E-07
    V_V2        -5.774E-03
    V_V1        -5.775E-03
    X_U2.vb     -3.949E-10
    X_U2.vc      1.058E-11
    X_U2.ve      1.133E-11
    X_U2.vlim    2.440E-07
    X_U2.vlp    -4.000E-11
    X_U2.vln    -4.000E-11
    X_U1A.VA1    1.384E-06
    X_U1A.VA2    1.384E-06
    X_U1A.VA3   -4.949E-13
    X_U1A.V2     1.088E-11
    X_U1A.V3     1.192E-11
    X_U1A.V4    -2.155E-13
    X_U1A.V5    -2.245E-13
    X_U1A.V6    -1.122E-04
    X_U1A.V7    -1.136E-04
    X_U1A.V8     2.001E-11
    X_U1A.V9     1.219E-11
    X_U1A.V10    1.115E-11
    X_U4.vb      7.790E-15
    X_U4.vc      1.100E-11
    X_U4.ve      1.091E-11
    X_U4.vlim    5.513E-08
    X_U4.vlp    -4.000E-11
    X_U4.vln    -4.000E-11
    X_U3.vb      7.178E-12
    X_U3.vc      1.101E-11
    X_U3.ve      1.091E-11
    X_U3.vlim   -4.216E-07
    X_U3.vlp    -4.000E-11
    X_U3.vln    -4.000E-11
    X_U5.vb      4.296E-15
    X_U5.vc      1.100E-11
    X_U5.ve      1.091E-11
    X_U5.vlim    7.951E-08
    X_U5.vlp    -4.000E-11
    X_U5.vln    -4.000E-11

    TOTAL POWER DISSIPATION   1.39E-01  WATTS


**** 08/31/22 15:25:35 ********* PSpice 9.2 (Mar 2000) ******** ID# 0 ********

 * D:\Project\project2.sch


 ****     OPERATING POINT INFORMATION      TEMPERATURE =   27.000 DEG C


******************************************************************************






**** VOLTAGE-CONTROLLED CURRENT SOURCES


NAME         X_U2.ga     X_U2.gcm    X_U1A.G1    X_U1A.G2    X_U1A.G3  
I-SOURCE    -3.227E-09  -3.622E-09   5.232E-08   5.232E-07   5.232E-07

NAME         X_U1A.G4    X_U4.ga     X_U4.gcm    X_U3.ga     X_U3.gcm  
I-SOURCE     2.098E-11  -3.622E-09  -3.622E-09  -3.629E-09  -3.622E-09

NAME         X_U5.ga     X_U5.gcm  
I-SOURCE    -3.622E-09  -3.622E-09


**** VOLTAGE-CONTROLLED VOLTAGE SOURCES


NAME         X_U2.egnd   X_U1A.EH    X_U1A.EN    X_U1A.EOS   X_U1A.EP  
V-SOURCE     0.000E+00   1.200E+01   1.200E+01   6.000E-03   1.200E+01
I-SOURCE    -2.901E-07   2.102E-12  -2.412E-11   0.000E+00  -1.384E-06

NAME         X_U1A.E1    X_U1A.E2    X_U4.egnd   X_U3.egnd   X_U5.egnd 
V-SOURCE     1.148E+01  -2.001E-09   0.000E+00   0.000E+00   0.000E+00
I-SOURCE     1.384E-06   0.000E+00  -9.980E-08   3.770E-07  -1.242E-07


**** CURRENT-CONTROLLED CURRENT SOURCES


NAME         X_U2.fb     X_U1A.F1    X_U1A.F2    X_U1A.F3    X_U4.fb   
I-SOURCE    -4.199E-03   1.384E-06  -4.949E-13   1.384E-06  -6.921E-08

NAME         X_U3.fb     X_U5.fb   
I-SOURCE     7.580E-05   1.100E-06


**** CURRENT-CONTROLLED VOLTAGE SOURCES


NAME         X_U2.hlim   X_U4.hlim   X_U3.hlim   X_U5.hlim 
V-SOURCE     2.440E-04   5.513E-05  -4.216E-04   7.951E-05
I-SOURCE    -4.880E-16  -1.103E-16   8.434E-16  -1.590E-16


**** DIODES


NAME         D_D1        D_D3        D_D4        D_D2        X_U2.dc   
MODEL        D1N914      D1N914      D1N914      D1N914      X_U2.dy   
ID           1.38E-06   -1.16E-10    2.44E-07   -1.19E-10   -1.06E-11 
VD           5.13E-01   -4.19E-01    4.17E-01   -5.16E-01   -1.06E+01 
REQ          4.01E+04    2.97E+10    2.23E+05    3.18E+10    1.00E+12 
CAP          5.94E-12    3.45E-12    5.28E-12    3.36E-12    2.94E-12 

NAME         X_U2.de     X_U2.dlp    X_U2.dln    X_U2.dp     X_U1A.DP1 
MODEL        X_U2.dy     X_U2.dx     X_U2.dx     X_U2.dx     X_U1A.DA  
ID          -1.14E-11   -4.00E-11   -4.00E-11   -2.40E-11   -1.10E-07 
VD          -1.14E+01   -4.00E+01   -4.00E+01   -2.40E+01   -1.20E+01 
REQ          1.00E+12    1.00E+12    1.00E+12    1.00E+12    1.00E+12 
CAP          2.84E-12    0.00E+00    0.00E+00    0.00E+00    0.00E+00 

NAME         X_U1A.DP2   X_U1A.DP3   X_U1A.DP4   X_U1A.D1    X_U1A.D2  
MODEL        X_U1A.DX    X_U1A.DB    X_U1A.DX    X_U1A.DX    X_U1A.DX  
ID          -1.20E-11   -1.13E-07   -1.20E-11   -1.09E-11   -1.19E-11 
VD          -1.20E+01   -1.20E+01   -1.20E+01   -1.09E+01   -1.19E+01 
REQ          1.00E+12    1.00E+12    1.00E+12    1.00E+12    1.00E+12 
CAP          0.00E+00    0.00E+00    0.00E+00    0.00E+00    0.00E+00 

NAME         X_U1A.D3    X_U1A.D4    X_U1A.D5    X_U1A.D6    X_U1A.D7  
MODEL        X_U1A.DX    X_U1A.DX    X_U1A.DX    X_U1A.DX    X_U1A.DX  
ID          -2.15E-13   -2.25E-13    1.12E-04    1.14E-04   -1.15E-11 
VD          -2.05E-01   -2.15E-01    5.99E-01    5.99E-01   -1.15E+01 
REQ          1.00E+12    1.00E+12    2.31E+02    2.28E+02    1.00E+12 
CAP          0.00E+00    0.00E+00    0.00E+00    0.00E+00    0.00E+00 

NAME         X_U1A.D8    X_U1A.D9    X_U1A.D10   X_U1A.D11   X_U1A.D12 
MODEL        X_U1A.DX    X_U1A.DX    X_U1A.DX    X_U1A.DX    X_U1A.DX  
ID          -1.25E-11    1.38E-06   -4.95E-13   -1.11E-11   -1.22E-11 
VD          -1.25E+01    4.85E-01   -4.85E-01   -1.11E+01   -1.22E+01 
REQ          1.00E+12    1.87E+04    1.00E+12    1.00E+12    1.00E+12 
CAP          0.00E+00    0.00E+00    0.00E+00    0.00E+00    0.00E+00 

NAME         X_U1A.D14   X_U4.dc     X_U4.de     X_U4.dlp    X_U4.dln  
MODEL        X_U1A.DX    X_U4.dy     X_U4.dy     X_U4.dx     X_U4.dx   
ID          -2.00E-11   -1.10E-11   -1.10E-11   -4.00E-11   -4.00E-11 
VD          -2.00E+01   -1.10E+01   -1.10E+01   -4.00E+01   -4.00E+01 
REQ          1.00E+12    1.00E+12    1.00E+12    1.00E+12    1.00E+12 
CAP          0.00E+00    2.89E-12    2.89E-12    0.00E+00    0.00E+00 

NAME         X_U4.dp     X_U3.dc     X_U3.de     X_U3.dlp    X_U3.dln  
MODEL        X_U4.dx     X_U3.dy     X_U3.dy     X_U3.dx     X_U3.dx   
ID          -2.40E-11   -1.10E-11   -1.10E-11   -4.00E-11   -4.00E-11 
VD          -2.40E+01   -1.10E+01   -1.10E+01   -4.00E+01   -4.00E+01 
REQ          1.00E+12    1.00E+12    1.00E+12    1.00E+12    1.00E+12 
CAP          0.00E+00    2.89E-12    2.89E-12    0.00E+00    0.00E+00 

NAME         X_U3.dp     X_U5.dc     X_U5.de     X_U5.dlp    X_U5.dln  
MODEL        X_U3.dx     X_U5.dy     X_U5.dy     X_U5.dx     X_U5.dx   
ID          -2.40E-11   -1.10E-11   -1.10E-11   -4.00E-11   -4.00E-11 
VD          -2.40E+01   -1.10E+01   -1.10E+01   -4.00E+01   -4.00E+01 
REQ          1.00E+12    1.00E+12    1.00E+12    1.00E+12    1.00E+12 
CAP          0.00E+00    2.89E-12    2.89E-12    0.00E+00    0.00E+00 

NAME         X_U5.dp   
MODEL        X_U5.dx   
ID          -2.40E-11 
VD          -2.40E+01 
REQ          1.00E+12 
CAP          0.00E+00 


**** BIPOLAR JUNCTION TRANSISTORS


NAME         X_U2.q1     X_U2.q2     X_U4.q1     X_U4.q2     X_U3.q1   
MODEL        X_U2.qx     X_U2.qx     X_U4.qx     X_U4.qx     X_U3.qx   
IB           7.98E-08    7.97E-08    7.98E-08    7.97E-08    7.98E-08 
IC           7.48E-06    7.48E-06    7.48E-06    7.48E-06    7.48E-06 
VBE          5.94E-01    5.94E-01    5.94E-01    5.94E-01    5.94E-01 
VBC         -1.20E+01   -1.20E+01   -1.20E+01   -1.20E+01   -1.20E+01 
VCE          1.26E+01    1.26E+01    1.26E+01    1.26E+01    1.26E+01 
BETADC       9.38E+01    9.38E+01    9.38E+01    9.38E+01    9.38E+01 
GM           2.89E-04    2.89E-04    2.89E-04    2.89E-04    2.89E-04 
RPI          3.24E+05    3.24E+05    3.24E+05    3.24E+05    3.24E+05 
RX           0.00E+00    0.00E+00    0.00E+00    0.00E+00    0.00E+00 
RO           1.00E+12    1.00E+12    1.00E+12    1.00E+12    1.00E+12 
CBE          0.00E+00    0.00E+00    0.00E+00    0.00E+00    0.00E+00 
CBC          0.00E+00    0.00E+00    0.00E+00    0.00E+00    0.00E+00 
CJS          0.00E+00    0.00E+00    0.00E+00    0.00E+00    0.00E+00 
BETAAC       9.38E+01    9.38E+01    9.38E+01    9.38E+01    9.38E+01 
CBX/CBX2     0.00E+00    0.00E+00    0.00E+00    0.00E+00    0.00E+00 
FT/FT2       4.60E+15    4.60E+15    4.60E+15    4.60E+15    4.60E+15 



NAME         X_U3.q2     X_U5.q1     X_U5.q2   
MODEL        X_U3.qx     X_U5.qx     X_U5.qx   
IB           7.97E-08    7.98E-08    7.97E-08 
IC           7.48E-06    7.48E-06    7.48E-06 
VBE          5.94E-01    5.94E-01    5.94E-01 
VBC         -1.20E+01   -1.20E+01   -1.20E+01 
VCE          1.26E+01    1.26E+01    1.26E+01 
BETADC       9.38E+01    9.38E+01    9.38E+01 
GM           2.89E-04    2.89E-04    2.89E-04 
RPI          3.24E+05    3.24E+05    3.24E+05 
RX           0.00E+00    0.00E+00    0.00E+00 
RO           1.00E+12    1.00E+12    1.00E+12 
CBE          0.00E+00    0.00E+00    0.00E+00 
CBC          0.00E+00    0.00E+00    0.00E+00 
CJS          0.00E+00    0.00E+00    0.00E+00 
BETAAC       9.38E+01    9.38E+01    9.38E+01 
CBX/CBX2     0.00E+00    0.00E+00    0.00E+00 
FT/FT2       4.60E+15    4.60E+15    4.60E+15 




**** MOSFETS


NAME         X_U1A.M1    X_U1A.M2  
MODEL        X_U1A.MX    X_U1A.MX  
ID          -9.00E-06   -9.00E-06 
VGS         -3.31E+00   -3.31E+00 
VDS         -1.53E+01   -1.53E+01 
VBS          8.69E+00    8.69E+00 
VTH         -3.10E+00   -3.10E+00 
VDSAT       -2.07E-01   -2.07E-01 
Lin0/Sat1   -1.00E+00   -1.00E+00 
if          -1.00E+00   -1.00E+00 
ir          -1.00E+00   -1.00E+00 
TAU         -1.00E+00   -1.00E+00 
GM           8.70E-05    8.69E-05 
GDS          0.00E+00    0.00E+00 
GMB          1.57E-05    1.57E-05 
CBD          0.00E+00    0.00E+00 
CBS          0.00E+00    0.00E+00 
CGSOV        0.00E+00    0.00E+00 
